vi	V(n003)	I(Rc)	I(Rb)
0.000000000000000e+00	1.006573e-06	1.009255e-11	-1.006573e-11
1.000000000000000e-02	1.000100e-02	1.009314e-11	-1.004480e-11
2.000000000000000e-02	2.000100e-02	1.010450e-11	-1.002332e-11
3.000000000000000e-02	3.000100e-02	1.012293e-11	-1.000157e-11
4.000000000000000e-02	4.000100e-02	1.015257e-11	-9.979302e-12
5.000000000000000e-02	5.000100e-02	1.020307e-11	-9.956368e-12
6.000000000000000e-02	6.000099e-02	1.028210e-11	-9.932553e-12
7.000000000000001e-02	7.000099e-02	1.040090e-11	-9.907619e-12
8.000000000000000e-02	8.000099e-02	1.057819e-11	-9.881217e-12
9.000000000000000e-02	9.000099e-02	1.084481e-11	-9.852879e-12
9.999999999999999e-02	1.000010e-01	1.124066e-11	-9.822000e-12
1.100000000000000e-01	1.100010e-01	1.182666e-11	-9.787809e-12
1.200000000000000e-01	1.200010e-01	1.269021e-11	-9.749263e-12
1.300000000000000e-01	1.300010e-01	1.396320e-11	-9.704956e-12
1.400000000000000e-01	1.400010e-01	1.583199e-11	-9.653001e-12
1.500000000000000e-01	1.500010e-01	1.858174e-11	-9.590945e-12
1.600000000000000e-01	1.600010e-01	2.261437e-11	-9.515441e-12
1.700000000000000e-01	1.700009e-01	2.853881e-11	-9.421857e-12
1.800000000000000e-01	1.800009e-01	3.723009e-11	-9.304146e-12
1.900000000000000e-01	1.900009e-01	4.998650e-11	-9.153823e-12
2.000000000000000e-01	2.000009e-01	6.869959e-11	-8.959491e-12
2.100000000000000e-01	2.100009e-01	9.615213e-11	-8.705306e-12
2.200000000000001e-01	2.200008e-01	1.364251e-10	-8.369445e-12
2.300000000000001e-01	2.300008e-01	1.954997e-10	-7.921801e-12
2.400000000000001e-01	2.400007e-01	2.821578e-10	-7.320144e-12
2.500000000000001e-01	2.500007e-01	4.092693e-10	-6.505719e-12
2.600000000000001e-01	2.600005e-01	5.957205e-10	-5.395933e-12
2.700000000000001e-01	2.700004e-01	8.692059e-10	-3.874256e-12
2.800000000000001e-01	2.800002e-01	1.270354e-09	-1.776044e-12
2.900000000000001e-01	2.899999e-01	1.858748e-09	1.132377e-12
3.000000000000001e-01	2.999995e-01	2.721783e-09	5.183837e-12
3.100000000000001e-01	3.099989e-01	3.987638e-09	1.085348e-11
3.200000000000001e-01	3.199981e-01	5.844296e-09	1.882162e-11
3.300000000000001e-01	3.299970e-01	8.567440e-09	3.006485e-11
3.400000000000001e-01	3.399954e-01	1.256133e-08	4.598810e-11
3.500000000000001e-01	3.499931e-01	1.841870e-08	6.861666e-11
3.600000000000002e-01	3.599899e-01	2.700850e-08	1.008748e-10
3.700000000000002e-01	3.699853e-01	3.960428e-08	1.469917e-10
3.800000000000002e-01	3.799787e-01	5.807191e-08	2.130907e-10
3.900000000000002e-01	3.899692e-01	8.514374e-08	3.080457e-10
4.000000000000002e-01	3.999555e-01	1.248179e-07	4.447230e-10
4.100000000000002e-01	4.099358e-01	1.829387e-07	6.417786e-10
4.200000000000002e-01	4.199074e-01	2.680351e-07	9.262471e-10
4.300000000000002e-01	4.298663e-01	3.925266e-07	1.337251e-09
4.400000000000002e-01	4.398069e-01	5.744374e-07	1.931261e-09
4.500000000000002e-01	4.497211e-01	8.398018e-07	2.789456e-09
4.600000000000002e-01	4.595972e-01	1.225963e-06	4.027795e-09
4.700000000000003e-01	4.694190e-01	1.785957e-06	5.810361e-09
4.800000000000003e-01	4.791634e-01	2.594028e-06	8.366130e-09
4.900000000000003e-01	4.887992e-01	3.752029e-06	1.200831e-08
5.000000000000002e-01	4.982847e-01	5.395727e-06	1.715338e-08
5.100000000000002e-01	5.075666e-01	7.699055e-06	2.433366e-08
5.200000000000002e-01	5.165806e-01	1.087308e-05	3.419375e-08
5.300000000000002e-01	5.252540e-01	1.515597e-05	4.745963e-08
5.400000000000003e-01	5.335126e-01	2.079185e-05	6.487390e-08
5.500000000000003e-01	5.412896e-01	2.800077e-05	8.710443e-08
5.600000000000003e-01	5.485350e-01	3.694760e-05	1.146501e-07
5.700000000000003e-01	5.552224e-01	4.772044e-05	1.477759e-07
5.800000000000003e-01	5.613502e-01	6.032539e-05	1.864974e-07
5.900000000000003e-01	5.669385e-01	7.469741e-05	2.306148e-07
6.000000000000003e-01	5.720225e-01	9.072074e-05	2.797750e-07
6.100000000000003e-01	5.766461e-01	1.082511e-04	3.335389e-07
6.200000000000003e-01	5.808562e-01	1.271340e-04	3.914379e-07
6.300000000000003e-01	5.846988e-01	1.472180e-04	4.530123e-07
6.400000000000003e-01	5.882166e-01	1.683616e-04	5.178338e-07
6.500000000000004e-01	5.914484e-01	1.904373e-04	5.855165e-07
6.600000000000004e-01	5.944281e-01	2.133323e-04	6.557195e-07
6.700000000000004e-01	5.971855e-01	2.369482e-04	7.281452e-07
6.800000000000004e-01	5.997464e-01	2.611995e-04	8.025359e-07
6.900000000000004e-01	6.021331e-01	2.860125e-04	8.786690e-07
7.000000000000004e-01	6.043648e-01	3.113234e-04	9.563524e-07
7.100000000000004e-01	6.064579e-01	3.370773e-04	1.035420e-06
7.200000000000004e-01	6.084270e-01	3.632265e-04	1.115729e-06
7.300000000000004e-01	6.102845e-01	3.897297e-04	1.197155e-06
7.400000000000004e-01	6.120411e-01	4.165508e-04	1.279589e-06
7.500000000000004e-01	6.137064e-01	4.436584e-04	1.362936e-06
7.600000000000005e-01	6.152886e-01	4.710249e-04	1.447115e-06
7.700000000000005e-01	6.167949e-01	4.986261e-04	1.532051e-06
7.800000000000005e-01	6.182319e-01	5.264407e-04	1.617681e-06
7.900000000000005e-01	6.196052e-01	5.544495e-04	1.703948e-06
8.000000000000005e-01	6.209199e-01	5.826358e-04	1.790801e-06
8.100000000000005e-01	6.221804e-01	6.109845e-04	1.878196e-06
8.200000000000005e-01	6.233909e-01	6.394821e-04	1.966091e-06
8.300000000000005e-01	6.245550e-01	6.681166e-04	2.054450e-06
8.400000000000005e-01	6.256759e-01	6.968771e-04	2.143241e-06
8.500000000000005e-01	6.267565e-01	7.257538e-04	2.232435e-06
8.600000000000005e-01	6.277996e-01	7.547376e-04	2.322004e-06
8.700000000000006e-01	6.288075e-01	7.838207e-04	2.411925e-06
8.800000000000006e-01	6.297824e-01	8.129955e-04	2.502176e-06
8.900000000000006e-01	6.307265e-01	8.422555e-04	2.592735e-06
9.000000000000006e-01	6.316414e-01	8.715944e-04	2.683586e-06
9.100000000000006e-01	6.325289e-01	9.010067e-04	2.774711e-06
9.200000000000006e-01	6.333905e-01	9.304871e-04	2.866095e-06
9.300000000000006e-01	6.342278e-01	9.600309e-04	2.957723e-06
9.400000000000006e-01	6.350418e-01	9.896338e-04	3.049582e-06
9.500000000000006e-01	6.358339e-01	1.019292e-03	3.141661e-06
9.600000000000006e-01	6.366053e-01	1.049001e-03	3.233947e-06
9.700000000000006e-01	6.373568e-01	1.078758e-03	3.326432e-06
9.800000000000006e-01	6.380897e-01	1.108559e-03	3.419104e-06
9.900000000000007e-01	6.388046e-01	1.138402e-03	3.511955e-06
1.000000000000001e+00	6.395024e-01	1.168283e-03	3.604976e-06
1.010000000000001e+00	6.401840e-01	1.198201e-03	3.698160e-06
1.020000000000001e+00	6.408500e-01	1.228152e-03	3.791500e-06
1.030000000000001e+00	6.415012e-01	1.258135e-03	3.884988e-06
1.040000000000001e+00	6.421382e-01	1.288147e-03	3.978619e-06
1.050000000000001e+00	6.427615e-01	1.318187e-03	4.072385e-06
1.060000000000001e+00	6.433718e-01	1.348251e-03	4.166282e-06
1.070000000000001e+00	6.439696e-01	1.378339e-03	4.260304e-06
1.080000000000001e+00	6.445554e-01	1.408450e-03	4.354446e-06
1.090000000000001e+00	6.451296e-01	1.438580e-03	4.448704e-06
1.100000000000001e+00	6.456927e-01	1.468730e-03	4.543073e-06
1.110000000000001e+00	6.462451e-01	1.498897e-03	4.637549e-06
1.120000000000001e+00	6.467872e-01	1.529080e-03	4.732127e-06
1.130000000000001e+00	6.473195e-01	1.559278e-03	4.826805e-06
1.140000000000001e+00	6.478422e-01	1.589490e-03	4.921579e-06
1.150000000000001e+00	6.483556e-01	1.619714e-03	5.016444e-06
1.160000000000001e+00	6.488602e-01	1.649950e-03	5.111398e-06
1.170000000000001e+00	6.493561e-01	1.680196e-03	5.206439e-06
1.180000000000001e+00	6.498438e-01	1.710453e-03	5.301562e-06
1.190000000000001e+00	6.503234e-01	1.740718e-03	5.396766e-06
1.200000000000001e+00	6.507952e-01	1.770990e-03	5.492048e-06
1.210000000000001e+00	6.512595e-01	1.801270e-03	5.587405e-06
1.220000000000001e+00	6.517166e-01	1.831556e-03	5.682834e-06
1.230000000000001e+00	6.521665e-01	1.861848e-03	5.778335e-06
1.240000000000001e+00	6.526097e-01	1.892144e-03	5.873903e-06
1.250000000000001e+00	6.530462e-01	1.922444e-03	5.969538e-06
1.260000000000001e+00	6.534762e-01	1.952748e-03	6.065237e-06
1.270000000000001e+00	6.539001e-01	1.983055e-03	6.160999e-06
1.280000000000001e+00	6.543179e-01	2.013364e-03	6.256822e-06
1.290000000000001e+00	6.547297e-01	2.043674e-03	6.352703e-06
1.300000000000001e+00	6.551358e-01	2.073986e-03	6.448642e-06
1.310000000000001e+00	6.555364e-01	2.104298e-03	6.544636e-06
1.320000000000001e+00	6.559315e-01	2.134611e-03	6.640685e-06
1.330000000000001e+00	6.563214e-01	2.164923e-03	6.736786e-06
1.340000000000001e+00	6.567062e-01	2.195234e-03	6.832938e-06
1.350000000000001e+00	6.570860e-01	2.225544e-03	6.929141e-06
1.360000000000001e+00	6.574608e-01	2.255852e-03	7.025392e-06
1.370000000000001e+00	6.578310e-01	2.286159e-03	7.121690e-06
1.380000000000001e+00	6.581965e-01	2.316463e-03	7.218035e-06
1.390000000000001e+00	6.585575e-01	2.346763e-03	7.314424e-06
1.400000000000001e+00	6.589142e-01	2.377061e-03	7.410858e-06
1.410000000000001e+00	6.592666e-01	2.407355e-03	7.507334e-06
1.420000000000001e+00	6.596147e-01	2.437646e-03	7.603852e-06
1.430000000000001e+00	6.599589e-01	2.467932e-03	7.700412e-06
1.440000000000001e+00	6.602990e-01	2.498213e-03	7.797010e-06
1.450000000000001e+00	6.606352e-01	2.528490e-03	7.893647e-06
1.460000000000001e+00	6.609677e-01	2.558762e-03	7.990323e-06
1.470000000000001e+00	6.612964e-01	2.589029e-03	8.087036e-06
1.480000000000001e+00	6.616215e-01	2.619289e-03	8.183784e-06
1.490000000000001e+00	6.619431e-01	2.649544e-03	8.280569e-06
1.500000000000001e+00	6.622612e-01	2.679793e-03	8.377388e-06
1.510000000000001e+00	6.625759e-01	2.710035e-03	8.474241e-06
1.520000000000001e+00	6.628873e-01	2.740271e-03	8.571127e-06
1.530000000000001e+00	6.631954e-01	2.770500e-03	8.668047e-06
1.540000000000001e+00	6.635004e-01	2.800722e-03	8.764997e-06
1.550000000000001e+00	6.638022e-01	2.830937e-03	8.861978e-06
1.560000000000001e+00	6.641010e-01	2.861144e-03	8.958990e-06
1.570000000000001e+00	6.643968e-01	2.891344e-03	9.056032e-06
1.580000000000001e+00	6.646897e-01	2.921536e-03	9.153103e-06
1.590000000000001e+00	6.649797e-01	2.951720e-03	9.250203e-06
1.600000000000001e+00	6.652669e-01	2.981896e-03	9.347331e-06
1.610000000000001e+00	6.655514e-01	3.012063e-03	9.444486e-06
1.620000000000001e+00	6.658332e-01	3.042222e-03	9.541668e-06
1.630000000000001e+00	6.661123e-01	3.072372e-03	9.638878e-06
1.640000000000001e+00	6.663888e-01	3.102513e-03	9.736112e-06
1.650000000000001e+00	6.666628e-01	3.132646e-03	9.833372e-06
1.660000000000001e+00	6.669343e-01	3.162769e-03	9.930657e-06
1.670000000000001e+00	6.672033e-01	3.192883e-03	1.002797e-05
1.680000000000001e+00	6.674699e-01	3.222988e-03	1.012530e-05
1.690000000000001e+00	6.677342e-01	3.253083e-03	1.022266e-05
1.700000000000001e+00	6.679962e-01	3.283169e-03	1.032004e-05
1.710000000000001e+00	6.682559e-01	3.313245e-03	1.041744e-05
1.720000000000001e+00	6.685133e-01	3.343311e-03	1.051487e-05
1.730000000000001e+00	6.687685e-01	3.373367e-03	1.061231e-05
1.740000000000001e+00	6.690216e-01	3.403413e-03	1.070978e-05
1.750000000000001e+00	6.692726e-01	3.433449e-03	1.080727e-05
1.760000000000001e+00	6.695215e-01	3.463474e-03	1.090479e-05
1.770000000000001e+00	6.697683e-01	3.493489e-03	1.100232e-05
1.780000000000001e+00	6.700132e-01	3.523494e-03	1.109987e-05
1.790000000000001e+00	6.702560e-01	3.553488e-03	1.119744e-05
1.800000000000001e+00	6.704969e-01	3.583471e-03	1.129503e-05
1.810000000000001e+00	6.707359e-01	3.613443e-03	1.139264e-05
1.820000000000001e+00	6.709730e-01	3.643405e-03	1.149027e-05
1.830000000000001e+00	6.712083e-01	3.673355e-03	1.158792e-05
1.840000000000001e+00	6.714417e-01	3.703295e-03	1.168558e-05
1.850000000000001e+00	6.716734e-01	3.733223e-03	1.178327e-05
1.860000000000001e+00	6.719033e-01	3.763140e-03	1.188097e-05
1.870000000000001e+00	6.721314e-01	3.793046e-03	1.197869e-05
1.880000000000001e+00	6.723579e-01	3.822941e-03	1.207642e-05
1.890000000000001e+00	6.725826e-01	3.852824e-03	1.217417e-05
1.900000000000001e+00	6.728057e-01	3.882696e-03	1.227194e-05
1.910000000000001e+00	6.730272e-01	3.912556e-03	1.236973e-05
1.920000000000001e+00	6.732470e-01	3.942404e-03	1.246753e-05
1.930000000000001e+00	6.734653e-01	3.972241e-03	1.256535e-05
1.940000000000002e+00	6.736820e-01	4.002066e-03	1.266318e-05
1.950000000000002e+00	6.738973e-01	4.031880e-03	1.276103e-05
1.960000000000002e+00	6.741109e-01	4.061681e-03	1.285889e-05
1.970000000000002e+00	6.743231e-01	4.091471e-03	1.295677e-05
1.980000000000002e+00	6.745338e-01	4.121248e-03	1.305466e-05
1.990000000000002e+00	6.747431e-01	4.151014e-03	1.315257e-05
2.000000000000001e+00	6.749510e-01	4.180767e-03	1.325049e-05
2.010000000000001e+00	6.751574e-01	4.210508e-03	1.334843e-05
2.020000000000001e+00	6.753625e-01	4.240238e-03	1.344638e-05
2.030000000000001e+00	6.755662e-01	4.269955e-03	1.354434e-05
2.040000000000000e+00	6.757685e-01	4.299659e-03	1.364232e-05
2.050000000000000e+00	6.759695e-01	4.329352e-03	1.374030e-05
2.060000000000000e+00	6.761692e-01	4.359032e-03	1.383831e-05
2.070000000000000e+00	6.763676e-01	4.388699e-03	1.393632e-05
2.080000000000000e+00	6.765648e-01	4.418354e-03	1.403435e-05
2.089999999999999e+00	6.767607e-01	4.447998e-03	1.413239e-05
2.099999999999999e+00	6.769553e-01	4.477628e-03	1.423045e-05
2.109999999999999e+00	6.771487e-01	4.507245e-03	1.432851e-05
2.119999999999999e+00	6.773409e-01	4.536850e-03	1.442659e-05
2.129999999999999e+00	6.775320e-01	4.566443e-03	1.452468e-05
2.139999999999998e+00	6.777218e-01	4.596023e-03	1.462278e-05
2.149999999999998e+00	6.779104e-01	4.625590e-03	1.472090e-05
2.159999999999998e+00	6.780980e-01	4.655144e-03	1.481902e-05
2.169999999999998e+00	6.782843e-01	4.684686e-03	1.491716e-05
2.179999999999997e+00	6.784697e-01	4.714215e-03	1.501530e-05
2.189999999999997e+00	6.786538e-01	4.743731e-03	1.511346e-05
2.199999999999997e+00	6.788369e-01	4.773234e-03	1.521163e-05
2.209999999999997e+00	6.790189e-01	4.802725e-03	1.530981e-05
2.219999999999997e+00	6.791999e-01	4.832202e-03	1.540800e-05
2.229999999999996e+00	6.793798e-01	4.861667e-03	1.550620e-05
2.239999999999996e+00	6.795586e-01	4.891119e-03	1.560441e-05
2.249999999999996e+00	6.797364e-01	4.920557e-03	1.570264e-05
2.259999999999996e+00	6.799133e-01	4.949983e-03	1.580087e-05
2.269999999999996e+00	6.800891e-01	4.979396e-03	1.589911e-05
2.279999999999995e+00	6.802639e-01	5.008795e-03	1.599736e-05
2.289999999999995e+00	6.804378e-01	5.038182e-03	1.609562e-05
2.299999999999995e+00	6.806107e-01	5.067555e-03	1.619389e-05
2.309999999999995e+00	6.807826e-01	5.096916e-03	1.629217e-05
2.319999999999995e+00	6.809536e-01	5.126263e-03	1.639046e-05
2.329999999999994e+00	6.811237e-01	5.155597e-03	1.648876e-05
2.339999999999994e+00	6.812928e-01	5.184919e-03	1.658707e-05
2.349999999999994e+00	6.814610e-01	5.214226e-03	1.668539e-05
2.359999999999994e+00	6.816284e-01	5.243521e-03	1.678372e-05
2.369999999999993e+00	6.817948e-01	5.272802e-03	1.688205e-05
2.379999999999993e+00	6.819604e-01	5.302071e-03	1.698040e-05
2.389999999999993e+00	6.821251e-01	5.331326e-03	1.707875e-05
2.399999999999993e+00	6.822889e-01	5.360567e-03	1.717711e-05
2.409999999999993e+00	6.824519e-01	5.389796e-03	1.727548e-05
2.419999999999992e+00	6.826141e-01	5.419012e-03	1.737386e-05
2.429999999999992e+00	6.827754e-01	5.448213e-03	1.747225e-05
2.439999999999992e+00	6.829359e-01	5.477402e-03	1.757064e-05
2.449999999999992e+00	6.830955e-01	5.506577e-03	1.766904e-05
2.459999999999992e+00	6.832544e-01	5.535739e-03	1.776746e-05
2.469999999999991e+00	6.834125e-01	5.564888e-03	1.786588e-05
2.479999999999991e+00	6.835698e-01	5.594024e-03	1.796430e-05
2.489999999999991e+00	6.837263e-01	5.623146e-03	1.806274e-05
2.499999999999991e+00	6.838820e-01	5.652254e-03	1.816118e-05
2.509999999999990e+00	6.840370e-01	5.681350e-03	1.825963e-05
2.519999999999990e+00	6.841912e-01	5.710432e-03	1.835809e-05
2.529999999999990e+00	6.843447e-01	5.739500e-03	1.845655e-05
2.539999999999990e+00	6.844974e-01	5.768555e-03	1.855503e-05
2.549999999999990e+00	6.846494e-01	5.797597e-03	1.865351e-05
2.559999999999989e+00	6.848007e-01	5.826626e-03	1.875199e-05
2.569999999999989e+00	6.849512e-01	5.855640e-03	1.885049e-05
2.579999999999989e+00	6.851011e-01	5.884642e-03	1.894899e-05
2.589999999999989e+00	6.852502e-01	5.913630e-03	1.904750e-05
2.599999999999989e+00	6.853987e-01	5.942604e-03	1.914601e-05
2.609999999999988e+00	6.855465e-01	5.971565e-03	1.924453e-05
2.619999999999988e+00	6.856935e-01	6.000513e-03	1.934306e-05
2.629999999999988e+00	6.858400e-01	6.029447e-03	1.944160e-05
2.639999999999988e+00	6.859857e-01	6.058368e-03	1.954014e-05
2.649999999999987e+00	6.861307e-01	6.087275e-03	1.963869e-05
2.659999999999987e+00	6.862751e-01	6.116169e-03	1.973725e-05
2.669999999999987e+00	6.864189e-01	6.145049e-03	1.983581e-05
2.679999999999987e+00	6.865621e-01	6.173916e-03	1.993438e-05
2.689999999999987e+00	6.867045e-01	6.202769e-03	2.003295e-05
2.699999999999986e+00	6.868464e-01	6.231609e-03	2.013154e-05
2.709999999999986e+00	6.869876e-01	6.260436e-03	2.023012e-05
2.719999999999986e+00	6.871282e-01	6.289249e-03	2.032872e-05
2.729999999999986e+00	6.872682e-01	6.318048e-03	2.042732e-05
2.739999999999986e+00	6.874076e-01	6.346834e-03	2.052592e-05
2.749999999999985e+00	6.875464e-01	6.375607e-03	2.062454e-05
2.759999999999985e+00	6.876846e-01	6.404365e-03	2.072315e-05
2.769999999999985e+00	6.878222e-01	6.433111e-03	2.082178e-05
2.779999999999985e+00	6.879592e-01	6.461843e-03	2.092041e-05
2.789999999999984e+00	6.880956e-01	6.490561e-03	2.101904e-05
2.799999999999984e+00	6.882315e-01	6.519266e-03	2.111768e-05
2.809999999999984e+00	6.883668e-01	6.547958e-03	2.121633e-05
2.819999999999984e+00	6.885015e-01	6.576635e-03	2.131499e-05
2.829999999999984e+00	6.886357e-01	6.605300e-03	2.141364e-05
2.839999999999983e+00	6.887693e-01	6.633951e-03	2.151231e-05
2.849999999999983e+00	6.889024e-01	6.662588e-03	2.161098e-05
2.859999999999983e+00	6.890349e-01	6.691212e-03	2.170965e-05
2.869999999999983e+00	6.891669e-01	6.719823e-03	2.180833e-05
2.879999999999983e+00	6.892983e-01	6.748420e-03	2.190702e-05
2.889999999999982e+00	6.894293e-01	6.777003e-03	2.200571e-05
2.899999999999982e+00	6.895596e-01	6.805573e-03	2.210440e-05
2.909999999999982e+00	6.896895e-01	6.834129e-03	2.220310e-05
2.919999999999982e+00	6.898189e-01	6.862672e-03	2.230181e-05
2.929999999999982e+00	6.899477e-01	6.891202e-03	2.240052e-05
2.939999999999981e+00	6.900761e-01	6.919717e-03	2.249924e-05
2.949999999999981e+00	6.902038e-01	6.948220e-03	2.259796e-05
2.959999999999981e+00	6.903312e-01	6.976709e-03	2.269669e-05
2.969999999999981e+00	6.904581e-01	7.005184e-03	2.279542e-05
2.979999999999980e+00	6.905844e-01	7.033647e-03	2.289416e-05
2.989999999999980e+00	6.907102e-01	7.062095e-03	2.299290e-05
2.999999999999980e+00	6.908356e-01	7.090530e-03	2.309164e-05
3.009999999999980e+00	6.909605e-01	7.118952e-03	2.319039e-05
3.019999999999980e+00	6.910849e-01	7.147360e-03	2.328915e-05
3.029999999999979e+00	6.912089e-01	7.175754e-03	2.338791e-05
3.039999999999979e+00	6.913323e-01	7.204136e-03	2.348668e-05
3.049999999999979e+00	6.914554e-01	7.232503e-03	2.358545e-05
3.059999999999979e+00	6.915780e-01	7.260858e-03	2.368422e-05
3.069999999999979e+00	6.917000e-01	7.289199e-03	2.378300e-05
3.079999999999978e+00	6.918217e-01	7.317526e-03	2.388178e-05
3.089999999999978e+00	6.919429e-01	7.345840e-03	2.398057e-05
3.099999999999978e+00	6.920637e-01	7.374140e-03	2.407936e-05
3.109999999999978e+00	6.921840e-01	7.402427e-03	2.417816e-05
3.119999999999977e+00	6.923039e-01	7.430702e-03	2.427696e-05
3.129999999999977e+00	6.924233e-01	7.458962e-03	2.437577e-05
3.139999999999977e+00	6.925423e-01	7.487209e-03	2.447458e-05
3.149999999999977e+00	6.926609e-01	7.515442e-03	2.457339e-05
3.159999999999977e+00	6.927791e-01	7.543662e-03	2.467221e-05
3.169999999999976e+00	6.928968e-01	7.571869e-03	2.477103e-05
3.179999999999976e+00	6.930141e-01	7.600062e-03	2.486986e-05
3.189999999999976e+00	6.931310e-01	7.628242e-03	2.496869e-05
3.199999999999976e+00	6.932476e-01	7.656408e-03	2.506752e-05
3.209999999999976e+00	6.933637e-01	7.684561e-03	2.516636e-05
3.219999999999975e+00	6.934793e-01	7.712701e-03	2.526521e-05
3.229999999999975e+00	6.935946e-01	7.740827e-03	2.536405e-05
3.239999999999975e+00	6.937095e-01	7.768940e-03	2.546290e-05
3.249999999999975e+00	6.938240e-01	7.797040e-03	2.556176e-05
3.259999999999974e+00	6.939381e-01	7.825126e-03	2.566062e-05
